dg1 [um],dg_feed [um],L1 [um],L2 [um],Freq [GHz],S11_dB,S21_dB
-12,-78,50,-96,0.6,-0.0025735096547132,-68.1934315287549
-12,-78,50,-96,0.605,-0.0026446581057067,-67.7212895168066
-12,-78,50,-96,0.61,-0.0027175469673194,-67.2474927728286
-12,-78,50,-96,0.615,-0.0027922166888782,-66.7719651294919
-12,-78,50,-96,0.62,-0.0028687097584475,-66.2946298548411
-12,-78,50,-96,0.625,-0.0029470708231529,-65.8154095837209
-12,-78,50,-96,0.63,-0.0030273468188963,-65.3342262478816
-12,-78,50,-96,0.635,-0.00310958711057,-64.8510010045954
-12,-78,50,-96,0.64,-0.0031938436436343,-64.3656541635353
-12,-78,50,-96,0.645,-0.0032801711084521,-63.8781051118272
-12,-78,50,-96,0.65,-0.0033686271186507,-63.3882722369406
-12,-78,50,-96,0.655,-0.0034592724051381,-62.8960728473478
-12,-78,50,-96,0.66,-0.0035521710275166,-62.4014230905974
-12,-78,50,-96,0.665,-0.0036473906049736,-61.9042378686665
-12,-78,50,-96,0.67,-0.0037450025688821,-61.4044307502697
-12,-78,50,-96,0.675,-0.0038450824399011,-60.9019138799019
-12,-78,50,-96,0.68,-0.0039477101325568,-60.3965978832995
-12,-78,50,-96,0.685,-0.004052970290819,-59.8883917690466
-12,-78,50,-96,0.69,-0.0041609526588431,-59.3772028259621
-12,-78,50,-96,0.695,-0.0042717524914938,-58.8629365159613
-12,-78,50,-96,0.7,-0.0043854710102307,-58.3454963619805
-12,-78,50,-96,0.705,-0.0045022159106412,-57.8247838305839
-12,-78,50,-96,0.71,-0.0046221019291554,-57.300698208815
-12,-78,50,-96,0.715,-0.0047452514776153,-56.7731364748055
-12,-78,50,-96,0.72,-0.0048717953559056,-56.2419931616704
-12,-78,50,-96,0.725,-0.0050018735546724,-55.7071602140917
-12,-78,50,-96,0.73,-0.0051356361623718,-55.1685268370415
-12,-78,50,-96,0.735,-0.0052732443932441,-54.625979335961
-12,-78,50,-96,0.74,-0.0054148717562235,-54.0794009477139
-12,-78,50,-96,0.745,-0.0055607053882937,-53.5286716615333
-12,-78,50,-96,0.75,-0.0057109475803581,-52.9736680291315
-12,-78,50,-96,0.755,-0.0058658175293142,-52.4142629630532
-12,-78,50,-96,0.76,-0.0060255533564233,-51.8503255222807
-12,-78,50,-96,0.765,-0.0061904144403184,-51.2817206839827
-12,-78,50,-96,0.77,-0.0063606841228242,-50.7083091002211
-12,-78,50,-96,0.775,-0.0065366728578342,-50.1299468382852
-12,-78,50,-96,0.78,-0.0067187218881694,-49.5464851032149
-12,-78,50,-96,0.785,-0.0069072075538782,-48.9577699409103
-12,-78,50,-96,0.79,-0.0071025463575389,-48.3636419200826
-12,-78,50,-96,0.795,-0.0073052009403095,-47.7639357911047
-12,-78,50,-96,0.8,-0.0075156871567187,-47.1584801196283
-12,-78,50,-96,0.805,-0.0077345824793853,-46.5470968926104
-12,-78,50,-96,0.81,-0.0079625360183328,-45.9296010941401
-12,-78,50,-96,0.815,-0.0082002805069603,-45.3058002481858
-12,-78,50,-96,0.82,-0.0084486466909777,-44.6754939250658
-12,-78,50,-96,0.825,-0.0087085806631948,-44.0384732081113
-12,-78,50,-96,0.83,-0.0089811648214333,-43.3945201166108
-12,-78,50,-96,0.835,-0.0092676432979502,-42.7434069806913
-12,-78,50,-96,0.84,-0.0095694529258835,-42.0848957633533
-12,-78,50,-96,0.845,-0.0098882610865688,-41.418737324345
-12,-78,50,-96,0.85,-0.0102260121380523,-40.7446706200177
-12,-78,50,-96,0.855,-0.0105849845846243,-40.0624218327058
-12,-78,50,-96,0.86,-0.0109678617410715,-39.3717034225343
-12,-78,50,-96,0.865,-0.0113778194166341,-38.6722130938833
-12,-78,50,-96,0.87,-0.0118186351491148,-37.9636326680599
-12,-78,50,-96,0.875,-0.0122948248365386,-37.2456268530495
-12,-78,50,-96,0.88,-0.0128118143458563,-36.5178419006024
-12,-78,50,-96,0.885,-0.0133761559682025,-35.7799041404134
-12,-78,50,-96,0.89,-0.0139958026306168,-35.0314183808747
-12,-78,50,-96,0.895,-0.014680456833457,-34.2719661659767
-12,-78,50,-96,0.9,-0.015442016728646,-33.5011038786111
-12,-78,50,-96,0.905,-0.0162951491005028,-32.7183606821408
-12,-78,50,-96,0.91,-0.0172580289768018,-31.9232362951032
-12,-78,50,-96,0.915,-0.0183532991944649,-31.115198599037
-12,-78,50,-96,0.92,-0.019609321906225,-30.2936810877067
-12,-78,50,-96,0.925,-0.0210618197860628,-29.4580801789979
-12,-78,50,-96,0.93,-0.0227560405081636,-28.6077524307452
-12,-78,50,-96,0.935,-0.0247496281770445,-27.7420117321457
-12,-78,50,-96,0.94,-0.0271164559454154,-26.8601265882332
-12,-78,50,-96,0.945,-0.0299517741002467,-25.9613176836862
-12,-78,50,-96,0.95,-0.0333791707325323,-25.0447560153148
-12,-78,50,-96,0.955,-0.0375600474458977,-24.1095620369068
-12,-78,50,-96,0.96,-0.0427066097748881,-23.1548064913436
-12,-78,50,-96,0.965,-0.049099805014801,-22.1795139518068
-12,-78,50,-96,0.97,-0.0571142749220355,-21.1826706151417
-12,-78,50,-96,0.975,-0.0672533261183107,-20.1632386746636
-12,-78,50,-96,0.98,-0.0801983048634916,-19.1201807799769
-12,-78,50,-96,0.985,-0.0968788140474171,-18.0524998651439
-12,-78,50,-96,0.99,-0.118573246530613,-16.9593022797643
-12,-78,50,-96,0.995,-0.147053574317553,-15.8398960864187
-12,-78,50,-96,1.0,-0.184794802785655,-14.6939420946624
-12,-78,50,-96,1.005,-0.235278601003021,-13.52168320007
-12,-78,50,-96,1.01,-0.303432715888082,-12.3242880671302
-12,-78,50,-96,1.015,-0.396262068098578,-11.1043570392939
-12,-78,50,-96,1.02,-0.523739773812484,-9.86664674362673
-12,-78,50,-96,1.025,-0.700024784455805,-8.61906236852792
-12,-78,50,-96,1.03,-0.945030200918198,-7.37391432180487
-12,-78,50,-96,1.035,-1.28623363660489,-6.14928713851264
-12,-78,50,-96,1.04,-1.76034089582257,-4.9700602849308
-12,-78,50,-96,1.045,-2.41400314677948,-3.86765830625003
-12,-78,50,-96,1.05,-3.3025374541539,-2.87725962373684
-12,-78,50,-96,1.055,-4.48626196455396,-2.03165573003003
-12,-78,50,-96,1.06,-6.02643122169158,-1.35289143438332
-12,-78,50,-96,1.065,-7.98639264280616,-0.845410156774377
-12,-78,50,-96,1.07,-10.4468140658657,-0.494850389031442
-12,-78,50,-96,1.075,-13.5493580684836,-0.273299389193108
-12,-78,50,-96,1.08,-17.6143132024902,-0.147648848104081
-12,-78,50,-96,1.085,-23.5833382181823,-0.0867741252118654
-12,-78,50,-96,1.09,-37.1928218306786,-0.0654579482169717
-12,-78,50,-96,1.095,-31.5189066502139,-0.0653630724629371
-12,-78,50,-96,1.1,-24.9935514276358,-0.074300347972557
-12,-78,50,-96,1.105,-22.2873145393886,-0.084876134077517
-12,-78,50,-96,1.11,-20.9474524525686,-0.0931300830461008
-12,-78,50,-96,1.115,-20.3552478987337,-0.0974044265942118
-12,-78,50,-96,1.12,-20.2693914140681,-0.0974886013148771
-12,-78,50,-96,1.125,-20.5828094296322,-0.0940047475518265
-12,-78,50,-96,1.13,-21.2543343623262,-0.0879810635698731
-12,-78,50,-96,1.135,-22.2876919506682,-0.0805647884564109
-12,-78,50,-96,1.14,-23.7321258502717,-0.0728373442431147
-12,-78,50,-96,1.145,-25.7054170754115,-0.0657041674408888
-12,-78,50,-96,1.15,-28.4680663969041,-0.059839200322397
-12,-78,50,-96,1.155,-32.6901730120487,-0.0556690200884374
-12,-78,50,-96,1.16,-41.0178082789958,-0.0533848559930121
-12,-78,50,-96,1.165,-43.6766122760838,-0.0529729876003693
-12,-78,50,-96,1.17,-34.1041617521168,-0.0542557536064666
-12,-78,50,-96,1.175,-29.7966241370087,-0.0569369332673282
-12,-78,50,-96,1.18,-27.1326598953414,-0.0606467132963774
-12,-78,50,-96,1.185,-25.2901807767958,-0.0649828260147698
-12,-78,50,-96,1.19,-23.9531023534023,-0.0695456884719353
-12,-78,50,-96,1.195,-22.9667531641521,-0.0739664290828663
-12,-78,50,-96,1.2,-22.2443982635466,-0.077927520620989
-12,-78,50,-96,1.205,-21.7331839963142,-0.0811763387494813
-12,-78,50,-96,1.21,-21.3993182417428,-0.0835323530212178
-12,-78,50,-96,1.215,-21.2208257345271,-0.0848888691671362
-12,-78,50,-96,1.22,-21.1837381013478,-0.0852103212809788
-12,-78,50,-96,1.225,-21.2800362931703,-0.0845261026141242
-12,-78,50,-96,1.23,-21.5066047307883,-0.0829218599517281
-12,-78,50,-96,1.235,-21.8648738402554,-0.0805290859038135
-12,-78,50,-96,1.24,-22.3610533860496,-0.0775137438867824
-12,-78,50,-96,1.245,-23.0070323304654,-0.0740645623326273
-12,-78,50,-96,1.25,-23.822234598217,-0.0703815421171011
-12,-78,50,-96,1.255,-24.8371024055712,-0.0666651348346882
-12,-78,50,-96,1.26,-26.0997248338601,-0.0631064677772776
-12,-78,50,-96,1.265,-27.6893003792807,-0.0598789120897587
-12,-78,50,-96,1.27,-29.7466269075028,-0.0571312118105773
-12,-78,50,-96,1.275,-32.5557581543691,-0.054982312664924
-12,-78,50,-96,1.28,-36.8320076667086,-0.0535179511868051
-12,-78,50,-96,1.285,-45.4739179559734,-0.052788988853484
-12,-78,50,-96,1.29,-46.6715702096126,-0.0528114051477862
-12,-78,50,-96,1.295,-37.3849246151783,-0.0535678009229297
-12,-78,50,-96,1.3,-33.0085173822276,-0.0550102120636969
-12,-78,50,-96,1.305,-30.1920069694735,-0.0570639954961626
-12,-78,50,-96,1.31,-28.1541929517157,-0.0596325263732437
-12,-78,50,-96,1.315,-26.5909240474137,-0.0626024368719463
-12,-78,50,-96,1.32,-25.3521319771332,-0.0658491324627039
-12,-78,50,-96,1.325,-24.3528155276171,-0.0692423387926089
-12,-78,50,-96,1.33,-23.5402821642379,-0.0726514588562871
-12,-78,50,-96,1.335,-22.8797603481863,-0.0759505530068445
-12,-78,50,-96,1.34,-22.3472693850045,-0.0790227907059968
-12,-78,50,-96,1.345,-21.9257623670627,-0.0817642601493319
-12,-78,50,-96,1.35,-21.6028984424979,-0.084087057932104
-12,-78,50,-96,1.355,-21.3696918280023,-0.0859216142201804
-12,-78,50,-96,1.36,-21.2196643803276,-0.0872182385149712
-12,-78,50,-96,1.365,-21.1483050473078,-0.0879478966257386
-12,-78,50,-96,1.37,-21.1527280272582,-0.0881022508783623
-12,-78,50,-96,1.375,-21.2314690833527,-0.0876930131782491
-12,-78,50,-96,1.38,-21.3843871988965,-0.0867506747537048
-12,-78,50,-96,1.385,-21.612656836442,-0.085322687733746
-12,-78,50,-96,1.39,-21.918850086238,-0.0834711826212468
-12,-78,50,-96,1.395,-22.3071217930247,-0.0812703125598724
-12,-78,50,-96,1.4,-22.7835280755685,-0.078803320284417
-12,-78,50,-96,1.405,-23.3565347616807,-0.0761594268518803
-12,-78,50,-96,1.41,-24.0378165274006,-0.0734306426137336
-12,-78,50,-96,1.415,-24.8435289591569,-0.0707086002511635
-12,-78,50,-96,1.42,-25.7963964030811,-0.0680815068456273
-12,-78,50,-96,1.425,-26.9292993343615,-0.0656313067051016
-12,-78,50,-96,1.43,-28.2918323917366,-0.0634311388793721
-12,-78,50,-96,1.435,-29.9633254451935,-0.0615431629672008
-12,-78,50,-96,1.44,-32.0817713095742,-0.0600168140820111
-12,-78,50,-96,1.445,-34.9192462729777,-0.0588875330157574
-12,-78,50,-96,1.45,-39.1330376717047,-0.0581760012015408
-12,-78,50,-96,1.455,-46.9551331093896,-0.0578878926488048
-12,-78,50,-96,1.46,-48.513215719095,-0.058014137334941
-12,-78,50,-96,1.465,-40.0738036461928,-0.0585316733517787
-12,-78,50,-96,1.47,-35.7785699147665,-0.0594046491751609
-12,-78,50,-96,1.475,-33.0016751028225,-0.0605860234191
-12,-78,50,-96,1.48,-30.9960536337831,-0.0620194978938206
-12,-78,50,-96,1.485,-29.4629907771623,-0.0636417110772411
-12,-78,50,-96,1.49,-28.254235192581,-0.0653846134196019
-12,-78,50,-96,1.495,-27.285949098644,-0.0671779432296372
-12,-78,50,-96,1.5,-26.5065132579667,-0.0689517220762009
-12,-78,50,-96,1.505,-25.8822890934415,-0.070638691386214
-12,-78,50,-96,1.51,-25.3905515246704,-0.0721766168464941
-12,-78,50,-96,1.515,-25.0156801868287,-0.0735103938967456
-12,-78,50,-96,1.52,-24.7469863967463,-0.0745938956078631
-12,-78,50,-96,1.525,-24.5774333085462,-0.0753915131811028
-12,-78,50,-96,1.53,-24.5028850795678,-0.0758793488489379
-12,-78,50,-96,1.535,-24.5217002723157,-0.0760460308497656
-12,-78,50,-96,1.54,-24.634579321962,-0.0758931302068991
-12,-78,50,-96,1.545,-24.8446341797744,-0.0754351691547438
-12,-78,50,-96,1.55,-25.1576946184511,-0.0746992211619627
-12,-78,50,-96,1.555,-25.5829174041576,-0.0737241125707295
-12,-78,50,-96,1.56,-26.133842016406,-0.0725592458723747
-12,-78,50,-96,1.565,-26.8301765824885,-0.0712630745191098
-12,-78,50,-96,1.57,-27.7008823840908,-0.0699012688272136
-12,-78,50,-96,1.575,-28.7897636163583,-0.0685446217934087
-12,-78,50,-96,1.58,-30.1663583615005,-0.0672667522835664
-12,-78,50,-96,1.585,-31.9494309337818,-0.0661416707524086
-12,-78,50,-96,1.59,-34.3655438194715,-0.065241279045804
-12,-78,50,-96,1.595,-37.9306424757966,-0.0646328805239345
-12,-78,50,-96,1.6,-44.2393753745043,-0.0643767793237709
-12,-78,50,-96,1.605,-51.0661493929822,-0.0645240476966598
-12,-78,50,-96,1.61,-40.9265923630599,-0.0651145377394433
-12,-78,50,-96,1.615,-35.8032906132846,-0.066175208340437
-12,-78,50,-96,1.62,-32.5425673674354,-0.0677188297978894
-12,-78,50,-96,1.625,-30.1671934283242,-0.0697431175284494
-12,-78,50,-96,1.63,-28.3130110823681,-0.0722303329348205
-12,-78,50,-96,1.635,-26.8061751068656,-0.0751473743747036
-12,-78,50,-96,1.64,-25.5504388020488,-0.0784463649221954
-12,-78,50,-96,1.645,-24.4870630365582,-0.0820657269675554
-12,-78,50,-96,1.65,-23.5776621006427,-0.0859317174095125
-12,-78,50,-96,1.655,-22.7958683668796,-0.0899603819573859
-12,-78,50,-96,1.66,-22.1228882406459,-0.0940598734836947
-12,-78,50,-96,1.665,-21.544959966146,-0.0981330679119375
-12,-78,50,-96,1.67,-21.0518177606579,-0.102080402085871
-12,-78,50,-96,1.675,-20.6357236359036,-0.105802851566173
-12,-78,50,-96,1.68,-20.2908371089026,-0.109204962301014
-12,-78,50,-96,1.685,-20.0127957242594,-0.112197848452775
-12,-78,50,-96,1.69,-19.7984330429649,-0.114702069079559
-12,-78,50,-96,1.695,-19.6455904327025,-0.116650298579135
-12,-78,50,-96,1.7,-19.5529962691724,-0.117989709529122
-12,-78,50,-96,1.705,-19.5201968118823,-0.118683991584669
-12,-78,50,-96,1.71,-19.547530108866,-0.118714936305948
-12,-78,50,-96,1.715,-19.6361395638794,-0.118083525181125
-12,-78,50,-96,1.72,-19.7880284095693,-0.116810466811754
-12,-78,50,-96,1.725,-20.0061612007089,-0.114936139470981
-12,-78,50,-96,1.73,-20.2946245853317,-0.112519907348525
-12,-78,50,-96,1.735,-20.6588684580652,-0.109638793101323
-12,-78,50,-96,1.74,-21.1060625329162,-0.106385506143692
-12,-78,50,-96,1.745,-21.6456267733289,-0.102865845618371
-12,-78,50,-96,1.75,-22.2900356026612,-0.0991955191742556
-12,-78,50,-96,1.755,-23.0560734083374,-0.0954964432300037
-12,-78,50,-96,1.76,-23.9668727914997,-0.0918926166648421
-12,-78,50,-96,1.765,-25.0553943247949,-0.0885056867976521
-12,-78,50,-96,1.77,-26.3707639809545,-0.0854503526528766
-12,-78,50,-96,1.775,-27.9908355152506,-0.0828297741011327
-12,-78,50,-96,1.78,-30.0501388298597,-0.0807311745250139
-12,-78,50,-96,1.785,-32.8133981204596,-0.0792218371808097
-12,-78,50,-96,1.79,-36.9292936122559,-0.078345699559151
-12,-78,50,-96,1.795,-44.9762360790877,-0.0781207443455548
-12,-78,50,-96,1.8,-50.9160228204739,-0.0785373691965412
-12,-78,50,-96,1.805,-39.1018919459224,-0.0795578903796126
-12,-78,50,-96,1.81,-34.4225004548489,-0.0811172980669316
-12,-78,50,-96,1.815,-31.5392680312018,-0.0831253351561806
-12,-78,50,-96,1.82,-29.516736108313,-0.0854699189026253
-12,-78,50,-96,1.825,-28.0157557699598,-0.088021867656783
-12,-78,50,-96,1.83,-26.8764454379318,-0.0906408358443923
-12,-78,50,-96,1.835,-26.0124902427839,-0.0931823008743849
-12,-78,50,-96,1.84,-25.3739787886776,-0.0955053871814002
-12,-78,50,-96,1.845,-24.9317332211354,-0.0974812556442756
-12,-78,50,-96,1.85,-24.6700236153461,-0.0990017310478486
-12,-78,50,-96,1.855,-24.5831797896881,-0.0999877855554042
-12,-78,50,-96,1.86,-24.6744169711127,-0.100397441910003
-12,-78,50,-96,1.865,-24.9563529692057,-0.100232606635262
-12,-78,50,-96,1.87,-25.4534249624335,-0.0995442928237617
-12,-78,50,-96,1.875,-26.2073061935929,-0.0984356486547076
-12,-78,50,-96,1.88,-27.2882837428217,-0.0970621793845184
-12,-78,50,-96,1.885,-28.8207110537,-0.0956285489211472
-12,-78,50,-96,1.89,-31.0483765896056,-0.0943813878787943
-12,-78,50,-96,1.895,-34.5458771526359,-0.0935976370119507
-12,-78,50,-96,1.9,-41.2261339430662,-0.0935681381802151
-12,-78,50,-96,1.905,-46.2533055843175,-0.0945764676479331
-12,-78,50,-96,1.91,-35.9580791705342,-0.096873400740121
-12,-78,50,-96,1.915,-30.9234787794041,-0.100647904554168
-12,-78,50,-96,1.92,-27.6707416083055,-0.105996165217677
-12,-78,50,-96,1.925,-25.3015908482708,-0.112890843895808
-12,-78,50,-96,1.93,-23.4803344977988,-0.121153490393688
-12,-78,50,-96,1.935,-22.0494026766866,-0.130433800258062
-12,-78,50,-96,1.94,-20.9264046711391,-0.140200183269359
-12,-78,50,-96,1.945,-20.0678618868901,-0.149746972992224
-12,-78,50,-96,1.95,-19.454760519387,-0.158224680495583
-12,-78,50,-96,1.955,-19.0874557156389,-0.164701204665373
-12,-78,50,-96,1.96,-18.9863754098892,-0.168264165503381
-12,-78,50,-96,1.965,-19.1989607572447,-0.168177863395802
-12,-78,50,-96,1.97,-19.8178469023736,-0.164112999377944
-12,-78,50,-96,1.975,-21.0274060294664,-0.156472945107916
-12,-78,50,-96,1.98,-23.2456364743306,-0.146845486134025
-12,-78,50,-96,1.985,-27.7575968748716,-0.138609229587042
-12,-78,50,-96,1.99,-47.6682540419907,-0.137709467063012
-12,-78,50,-96,1.995,-27.318478006838,-0.15357061601472
-12,-78,50,-96,2.0,-19.9045935894008,-0.200003409114667
-12,-78,50,-96,2.005,-15.3694423858188,-0.295770380265335
-12,-78,50,-96,2.01,-12.0316116462128,-0.46421946042693
-12,-78,50,-96,2.015,-9.40868337745421,-0.731249347474665
-12,-78,50,-96,2.02,-7.30271276352969,-1.12118395911463
-12,-78,50,-96,2.025,-5.61316340805531,-1.65120093505584
-12,-78,50,-96,2.03,-4.27492534888484,-2.32638565020155
-12,-78,50,-96,2.035,-3.23378502151321,-3.13793989472792
-12,-78,50,-96,2.04,-2.43827747244817,-4.06558352964669
-12,-78,50,-96,2.045,-1.83945323482579,-5.08277036059858
-12,-78,50,-96,2.05,-1.39327544834354,-6.16214010070991
-12,-78,50,-96,2.055,-1.06260669107552,-7.27933263745436
-12,-78,50,-96,2.06,-0.817800933574441,-8.41473068584689
-12,-78,50,-96,2.065,-0.636137552134635,-9.55364819965359
-12,-78,50,-96,2.07,-0.500677816856619,-10.6856978270023
-12,-78,50,-96,2.075,-0.399006933464591,-11.8038887393908
-12,-78,50,-96,2.08,-0.32210853543654,-12.9037549784694
-12,-78,50,-96,2.085,-0.263457086779478,-13.9826330023084
-12,-78,50,-96,2.09,-0.218327614004148,-15.0391091451969
-12,-78,50,-96,2.095,-0.183288227498498,-16.0726164323564
-12,-78,50,-96,2.1,-0.155834116767541,-17.0831488197752
-12,-78,50,-96,2.105,-0.1341261870062,-18.0710624609721
-12,-78,50,-96,2.11,-0.116805155083181,-19.0369393173166
-12,-78,50,-96,2.115,-0.102859323255239,-19.9814945331213
-12,-78,50,-96,2.12,-0.0915302932642451,-20.9055141569883
-12,-78,50,-96,2.125,-0.0822454510579936,-21.8098137442609
-12,-78,50,-96,2.13,-0.0745693654550228,-22.6952112545591
-12,-78,50,-96,2.135,-0.0681685939125418,-23.5625096968662
-12,-78,50,-96,2.14,-0.0627860355301506,-24.4124863950257
-12,-78,50,-96,2.145,-0.058222119502509,-25.2458867275414
-12,-78,50,-96,2.15,-0.0543209164682876,-26.0634208701707
-12,-78,50,-96,2.155,-0.0509598173295715,-26.8657625329003
-12,-78,50,-96,2.16,-0.048041813678244,-27.6535490007959
-12,-78,50,-96,2.165,-0.0454896875249387,-28.4273820066422
-12,-78,50,-96,2.17,-0.043241611091811,-29.1878291135622
-12,-78,50,-96,2.175,-0.0412477944373553,-29.9354253893185
-12,-78,50,-96,2.18,-0.0394679164720092,-30.6706752253839
-12,-78,50,-96,2.185,-0.0378691451359066,-31.3940542030968
-12,-78,50,-96,2.19,-0.0364246032252227,-32.1060109431534
-12,-78,50,-96,2.195,-0.0351121732036602,-32.8069688980411
-12,-78,50,-96,2.2,-0.0339135612690998,-33.4973280630006
-12,-78,50,-96,2.205,-0.0328135607463031,-34.177466592013
-12,-78,50,-96,2.21,-0.0317994695148509,-34.8477423126447
-12,-78,50,-96,2.215,-0.0308606270649034,-35.5084941384625
-12,-78,50,-96,2.22,-0.0299880449070914,-36.1600433809071
-12,-78,50,-96,2.225,-0.0291741101753146,-36.802694964489
-12,-78,50,-96,2.23,-0.0284123468764553,-37.4367385503548
-12,-78,50,-96,2.235,-0.0276972227443394,-38.0624495738743
-12,-78,50,-96,2.24,-0.0270239923265901,-38.6800902021525
-12,-78,50,-96,2.245,-0.0263885689798614,-39.2899102173592
-12,-78,50,-96,2.25,-0.0257874200241698,-39.8921478316026
-12,-78,50,-96,2.255,-0.0252174805245951,-40.4870304388129
-12,-78,50,-96,2.26,-0.0246760821142319,-41.0747753087782
-12,-78,50,-96,2.265,-0.0241608940089059,-41.6555902281389
-12,-78,50,-96,2.27,-0.0236698739412428,-42.2296740927678
-12,-78,50,-96,2.275,-0.0232012271946325,-42.7972174556497
-12,-78,50,-96,2.28,-0.0227533722754466,-43.3584030340044
-12,-78,50,-96,2.285,-0.0223249120446267,-43.9134061790947
-12,-78,50,-96,2.29,-0.0219146093548821,-44.4623953118689
-12,-78,50,-96,2.295,-0.0215213664189621,-45.0055323272888
-12,-78,50,-96,2.3,-0.021144207278008,-45.5429729699677
-12,-78,50,-96,2.305,-0.0207822628542538,-46.0748671834841
-12,-78,50,-96,2.31,-0.0204347581651231,-46.601359435546
